(1635753766.371039) vcan0 1B4#00D0000000
(1635753766.386490) vcan0 1B4#00D0000000
(1635753766.396864) vcan0 1B4#00D0000000
(1635753766.412357) vcan0 1B4#00D0000000
(1635753766.422656) vcan0 1B4#00D0000000
(1635753766.438166) vcan0 1B4#00D0000000
(1635753766.453620) vcan0 1B4#00D0000000
(1635753766.469117) vcan0 1B4#00D0000000
(1635753766.484587) vcan0 1B4#00D0000000
(1635753766.494909) vcan0 1B4#00D0000000
(1635753766.510436) vcan0 1B4#00D0000000
(1635753766.520743) vcan0 1B4#00D0000000
(1635753766.536263) vcan0 1B4#00D0000000
(1635753766.546626) vcan0 1B4#00D0000000
(1635753766.562117) vcan0 1B4#00D0000000
(1635753766.577589) vcan0 1B4#00D0000000
(1635753766.593085) vcan0 1B4#00D0000000
(1635753766.608562) vcan0 1B4#00D0000000
(1635753766.618906) vcan0 1B4#00D0000000
(1635753766.634372) vcan0 1B4#00D0000000
(1635753766.634402) vcan0 188#00000000
(1635753766.644713) vcan0 1B4#00D0000000
(1635753766.655076) vcan0 1B4#00D0000000
(1635753766.670596) vcan0 1B4#00D0000000
(1635753766.686065) vcan0 1B4#00D0000000
(1635753766.701498) vcan0 1B4#00D0000000
(1635753766.711799) vcan0 1B4#00D0000000
(1635753766.727243) vcan0 1B4#00D0000000
(1635753766.742633) vcan0 1B4#00D0000000
(1635753766.758065) vcan0 1B4#00D0000000
(1635753766.773566) vcan0 1B4#00D0000000
(1635753766.783894) vcan0 1B4#00D0000000
(1635753766.799396) vcan0 1B4#00D0000000
(1635753766.809761) vcan0 1B4#00D0000000
(1635753766.825261) vcan0 1B4#00D0000000
(1635753766.840751) vcan0 1B4#00D0000000
(1635753766.856283) vcan0 1B4#00D0000000
(1635753766.866603) vcan0 1B4#00D0000000
(1635753766.882134) vcan0 1B4#00D0000000
(1635753766.897510) vcan0 1B4#00D0000000
(1635753766.907771) vcan0 1B4#00D0000000
(1635753766.924324) vcan0 1B4#00D0000000
(1635753766.939632) vcan0 1B4#00D0000000
(1635753766.954983) vcan0 1B4#00D0000000
(1635753766.970401) vcan0 1B4#00D0000000
(1635753766.980727) vcan0 1B4#00D0000000
(1635753766.996176) vcan0 1B4#00D0000000
(1635753767.011744) vcan0 1B4#00D0000000
(1635753767.027315) vcan0 1B4#00D0000000
(1635753767.037671) vcan0 1B4#00D0000000
(1635753767.053167) vcan0 1B4#00D0000000
(1635753767.068574) vcan0 1B4#00D0000000
(1635753767.078813) vcan0 1B4#00D0000000
(1635753767.094230) vcan0 1B4#00D0000000
(1635753767.109626) vcan0 1B4#00D0000000
(1635753767.125089) vcan0 1B4#00D0000000
(1635753767.136017) vcan0 1B4#00D0000000
(1635753767.136057) vcan0 188#00000000
(1635753767.151535) vcan0 1B4#00D0000000
(1635753767.161879) vcan0 1B4#00D0000000
(1635753767.177363) vcan0 1B4#00D0000000
(1635753767.187676) vcan0 1B4#00D0000000
(1635753767.203144) vcan0 1B4#00D0000000
(1635753767.218533) vcan0 1B4#00D0000000
(1635753767.228839) vcan0 1B4#00D0000000
(1635753767.241361) vcan0 1B4#00D0000000
(1635753767.252128) vcan0 1B4#00D0000000
(1635753767.268061) vcan0 1B4#00D0000000
(1635753767.283433) vcan0 1B4#00D0000000
(1635753767.293652) vcan0 1B4#00D0000000
(1635753767.308966) vcan0 1B4#00D0000000
(1635753767.324268) vcan0 1B4#00D0000000
(1635753767.339540) vcan0 1B4#00D0000000
(1635753767.349733) vcan0 1B4#00D0000000
(1635753767.365043) vcan0 1B4#00D0000000
(1635753767.380390) vcan0 1B4#00D0000000
(1635753767.390623) vcan0 1B4#00D0000000
(1635753767.405897) vcan0 1B4#00D0000000
(1635753767.421177) vcan0 1B4#00D0000000
(1635753767.436481) vcan0 1B4#00D0000000
(1635753767.446680) vcan0 1B4#00D0000000
(1635753767.461917) vcan0 1B4#00D0000000
(1635753767.477137) vcan0 1B4#00D0000000
(1635753767.492398) vcan0 1B4#00D0000000
(1635753767.507657) vcan0 1B4#00D0000000
(1635753767.522942) vcan0 1B4#00D0000000
(1635753767.538177) vcan0 1B4#00D0000000
(1635753767.553476) vcan0 1B4#00D0000000
(1635753767.563634) vcan0 1B4#00D0000000
(1635753767.579049) vcan0 1B4#00D0000000
(1635753767.594428) vcan0 1B4#00D0000000
(1635753767.604712) vcan0 1B4#00D0000000
(1635753767.620118) vcan0 1B4#00D0000000
(1635753767.635524) vcan0 1B4#00D0000000
(1635753767.640653) vcan0 188#00000000
(1635753767.645775) vcan0 1B4#00D0000000
(1635753767.656074) vcan0 1B4#00D0000000
(1635753767.671598) vcan0 1B4#00D0000000
(1635753767.682989) vcan0 1B4#00D0000000
(1635753767.698336) vcan0 1B4#00D0000000
(1635753767.708614) vcan0 1B4#00D0000000
(1635753767.724063) vcan0 1B4#00D0000000
(1635753767.739585) vcan0 1B4#00D0000000
(1635753767.755029) vcan0 1B4#00D0000000
(1635753767.770468) vcan0 1B4#00D0000000
(1635753767.780818) vcan0 1B4#00D0000000
(1635753767.796300) vcan0 1B4#00D0000000
(1635753767.806597) vcan0 1B4#00D0000000
(1635753767.822037) vcan0 1B4#00D0000000
(1635753767.837456) vcan0 1B4#00D0000000
(1635753767.847796) vcan0 1B4#00D0000000
(1635753767.863273) vcan0 1B4#00D0000000
(1635753767.873581) vcan0 1B4#00D0000000
(1635753767.889125) vcan0 1B4#00D0000000
(1635753767.904603) vcan0 1B4#00D0000000
(1635753767.920079) vcan0 1B4#00D0000000
(1635753767.935555) vcan0 1B4#00D0000000
(1635753767.945858) vcan0 1B4#00D0000000
(1635753767.961333) vcan0 1B4#00D0000000
(1635753767.971615) vcan0 1B4#00D0000000
(1635753767.987056) vcan0 1B4#00D0000000
(1635753768.002508) vcan0 1B4#00D0000000
(1635753768.012819) vcan0 1B4#00D0000000
(1635753768.028299) vcan0 1B4#00D0000000
(1635753768.038596) vcan0 1B4#00D0000000
(1635753768.054011) vcan0 1B4#00D0000000
(1635753768.069444) vcan0 1B4#00D0000000
(1635753768.079740) vcan0 1B4#00D0000000
(1635753768.095198) vcan0 1B4#00D0000000
(1635753768.110629) vcan0 1B4#00D0000000
(1635753768.124503) vcan0 1B4#05D0000000
(1635753768.134783) vcan0 1B4#0AD0000000
(1635753768.145114) vcan0 188#00000000
(1635753768.150298) vcan0 1B4#0FD0000000
(1635753768.160649) vcan0 1B4#14D0000000
(1635753768.176083) vcan0 1B4#1AD0000000
(1635753768.191531) vcan0 1B4#1FD0000000
(1635753768.201850) vcan0 1B4#24D0000000
(1635753768.217310) vcan0 1B4#29D0000000
(1635753768.227638) vcan0 1B4#2ED0000000
(1635753768.243116) vcan0 1B4#34D0000000
(1635753768.258550) vcan0 1B4#39D0000000
(1635753768.268868) vcan0 1B4#3ED0000000
(1635753768.284289) vcan0 1B4#43D0000000
(1635753768.294573) vcan0 1B4#48D0000000
(1635753768.310049) vcan0 1B4#4ED0000000
(1635753768.325476) vcan0 1B4#53D0000000
(1635753768.335801) vcan0 1B4#58D0000000
(1635753768.351308) vcan0 1B4#5DD0000000
(1635753768.361677) vcan0 1B4#62D0000000
(1635753768.377105) vcan0 1B4#67D0000000
(1635753768.392601) vcan0 1B4#6DD0000000
(1635753768.408015) vcan0 1B4#72D0000000
(1635753768.423495) vcan0 1B4#77D0000000
(1635753768.433786) vcan0 1B4#7CD0000000
(1635753768.449254) vcan0 1B4#81D0000000
(1635753768.459626) vcan0 1B4#87D0000000
(1635753768.475103) vcan0 1B4#8CD0000000
(1635753768.490524) vcan0 1B4#91D0000000
(1635753768.500856) vcan0 1B4#96D0000000
(1635753768.516363) vcan0 1B4#9BD0000000
(1635753768.526665) vcan0 1B4#A1D0000000
(1635753768.540040) vcan0 1B4#A6D0000000
(1635753768.555555) vcan0 1B4#ABD0000000
(1635753768.567821) vcan0 1B4#B0D0000000
(1635753768.583261) vcan0 1B4#B5D0000000
(1635753768.601507) vcan0 1B4#BBD0000000
(1635753768.611914) vcan0 1B4#C0D0000000
(1635753768.627381) vcan0 1B4#C5D0000000
(1635753768.640759) vcan0 1B4#CAD0000000
(1635753768.651063) vcan0 188#00000000
(1635753768.656252) vcan0 1B4#CFD0000000
(1635753768.669267) vcan0 1B4#D5D0000000
(1635753768.679675) vcan0 1B4#DAD0000000
(1635753768.695165) vcan0 1B4#DFD0000000
(1635753768.708642) vcan0 1B4#E4D0000000
(1635753768.724283) vcan0 1B4#E9D0000000
(1635753768.737060) vcan0 1B4#EFD0000000
(1635753768.752661) vcan0 1B4#F4D0000000
(1635753768.770754) vcan0 1B4#F9D0000000
(1635753768.786323) vcan0 1B4#FED0000000
(1635753768.796666) vcan0 1B4#03D1000000
(1635753768.810352) vcan0 1B4#09D1000000
(1635753768.820693) vcan0 1B4#0ED1000000
(1635753768.833957) vcan0 1B4#13D1000000
(1635753768.849482) vcan0 1B4#18D1000000
(1635753768.859827) vcan0 1B4#1DD1000000
(1635753768.872997) vcan0 1B4#23D1000000
(1635753768.888570) vcan0 1B4#28D1000000
(1635753768.906845) vcan0 1B4#2DD1000000
(1635753768.922399) vcan0 1B4#32D1000000
(1635753768.934609) vcan0 1B4#38D1000000
(1635753768.950079) vcan0 1B4#3DD1000000
(1635753768.967500) vcan0 1B4#42D1000000
(1635753768.977807) vcan0 1B4#47D1000000
(1635753768.993197) vcan0 1B4#4CD1000000
(1635753769.005525) vcan0 1B4#52D1000000
(1635753769.015891) vcan0 1B4#57D1000000
(1635753769.031309) vcan0 1B4#5CD1000000
(1635753769.043701) vcan0 1B4#61D1000000
(1635753769.059139) vcan0 1B4#66D1000000
(1635753769.071554) vcan0 1B4#6CD1000000
(1635753769.081865) vcan0 1B4#71D1000000
(1635753769.097316) vcan0 1B4#76D1000000
(1635753769.109727) vcan0 1B4#7BD1000000
(1635753769.125110) vcan0 1B4#80D1000000
(1635753769.143227) vcan0 1B4#86D1000000
(1635753769.153637) vcan0 1B4#8BD1000000
(1635753769.153673) vcan0 188#00000000
(1635753769.169162) vcan0 1B4#86D1000000
(1635753769.182588) vcan0 1B4#8BD1000000
(1635753769.198044) vcan0 1B4#90D1000000
(1635753769.211341) vcan0 1B4#95D1000000
(1635753769.221749) vcan0 1B4#9AD1000000
(1635753769.239939) vcan0 1B4#A0D1000000
(1635753769.255517) vcan0 1B4#A5D1000000
(1635753769.265819) vcan0 1B4#AAD1000000
(1635753769.279026) vcan0 1B4#AFD1000000
(1635753769.294469) vcan0 1B4#B4D1000000
(1635753769.307721) vcan0 1B4#BAD1000000
(1635753769.323295) vcan0 1B4#BFD1000000
(1635753769.333639) vcan0 1B4#C4D1000000
(1635753769.346751) vcan0 1B4#C9D1000000
(1635753769.362239) vcan0 1B4#CED1000000
(1635753769.374656) vcan0 1B4#D4D1000000
(1635753769.390171) vcan0 1B4#D9D1000000
(1635753769.405647) vcan0 1B4#D4D1000000
(1635753769.419096) vcan0 1B4#D9D1000000
(1635753769.434576) vcan0 1B4#DED1000000
(1635753769.447702) vcan0 1B4#E3D1000000
(1635753769.463159) vcan0 1B4#E8D1000000
(1635753769.476401) vcan0 1B4#EED1000000
(1635753769.486764) vcan0 1B4#F3D1000000
(1635753769.502236) vcan0 1B4#F8D1000000
(1635753769.514601) vcan0 1B4#FDD1000000
(1635753769.529991) vcan0 1B4#02D2000000
(1635753769.543249) vcan0 1B4#08D2000000
(1635753769.554393) vcan0 1B4#0DD2000000
(1635753769.564731) vcan0 1B4#12D2000000
(1635753769.577852) vcan0 1B4#17D2000000
(1635753769.593345) vcan0 1B4#1CD2000000
(1635753769.603665) vcan0 1B4#22D2000000
(1635753769.616821) vcan0 1B4#27D2000000
(1635753769.632305) vcan0 1B4#2CD2000000
(1635753769.645325) vcan0 1B4#31D2000000
(1635753769.655714) vcan0 1B4#36D2000000
(1635753769.655741) vcan0 188#00000000
(1635753769.671218) vcan0 1B4#3CD2000000
(1635753769.684860) vcan0 1B4#41D2000000
(1635753769.700309) vcan0 1B4#46D2000000
(1635753769.713388) vcan0 1B4#4BD2000000
(1635753769.723801) vcan0 1B4#50D2000000
(1635753769.739333) vcan0 1B4#56D2000000
(1635753769.752679) vcan0 1B4#5BD2000000
(1635753769.768160) vcan0 1B4#60D2000000
(1635753769.781274) vcan0 1B4#65D2000000
(1635753769.791664) vcan0 1B4#6AD2000000
(1635753769.807150) vcan0 1B4#70D2000000
(1635753769.820606) vcan0 1B4#75D2000000
(1635753769.836063) vcan0 1B4#7AD2000000
(1635753769.849162) vcan0 1B4#7FD2000000
(1635753769.859563) vcan0 1B4#84D2000000
(1635753769.875097) vcan0 1B4#7FD2000000
(1635753769.888466) vcan0 1B4#84D2000000
(1635753769.898782) vcan0 1B4#8AD2000000
(1635753769.917822) vcan0 1B4#8FD2000000
(1635753769.933374) vcan0 1B4#94D2000000
(1635753769.943722) vcan0 1B4#99D2000000
(1635753769.957325) vcan0 1B4#9ED2000000
(1635753769.967650) vcan0 1B4#A4D2000000
(1635753769.985742) vcan0 1B4#A9D2000000
(1635753770.001312) vcan0 1B4#AED2000000
(1635753770.011663) vcan0 1B4#A9D2000000
(1635753770.025173) vcan0 1B4#AED2000000
(1635753770.040683) vcan0 1B4#B3D2000000
(1635753770.053957) vcan0 1B4#B8D2000000
(1635753770.069449) vcan0 1B4#BED2000000
(1635753770.082785) vcan0 1B4#C3D2000000
(1635753770.098310) vcan0 1B4#C8D2000000
(1635753770.108605) vcan0 1B4#CDD2000000
(1635753770.122402) vcan0 1B4#D2D2000000
(1635753770.132738) vcan0 1B4#D8D2000000
(1635753770.150997) vcan0 1B4#DDD2000000
(1635753770.161399) vcan0 188#00000000
(1635753770.166559) vcan0 1B4#E2D2000000
(1635753770.184096) vcan0 1B4#E7D2000000
(1635753770.199514) vcan0 1B4#ECD2000000
(1635753770.209806) vcan0 1B4#F2D2000000
(1635753770.222116) vcan0 1B4#F7D2000000
(1635753770.237550) vcan0 1B4#FCD2000000
(1635753770.250006) vcan0 1B4#01D3000000
(1635753770.265417) vcan0 1B4#06D3000000
(1635753770.275720) vcan0 1B4#0CD3000000
(1635753770.293059) vcan0 1B4#11D3000000
(1635753770.308542) vcan0 1B4#16D3000000
(1635753770.320896) vcan0 1B4#1BD3000000
(1635753770.336329) vcan0 1B4#20D3000000
(1635753770.348548) vcan0 1B4#26D3000000
(1635753770.364041) vcan0 1B4#2BD3000000
(1635753770.383133) vcan0 1B4#30D3000000
(1635753770.398589) vcan0 1B4#35D3000000
(1635753770.416993) vcan0 1B4#3AD3000000
(1635753770.432560) vcan0 1B4#40D3000000
(1635753770.450846) vcan0 1B4#45D3000000
(1635753770.466422) vcan0 1B4#4AD3000000
(1635753770.479745) vcan0 1B4#4FD3000000
(1635753770.495257) vcan0 1B4#54D3000000
(1635753770.505584) vcan0 1B4#5AD3000000
(1635753770.518804) vcan0 1B4#5FD3000000
(1635753770.534233) vcan0 1B4#64D3000000
(1635753770.544730) vcan0 1B4#5FD3000000
(1635753770.558217) vcan0 1B4#64D3000000
(1635753770.573673) vcan0 1B4#69D3000000
(1635753770.586884) vcan0 1B4#6ED3000000
(1635753770.602351) vcan0 1B4#74D3000000
(1635753770.615481) vcan0 1B4#79D3000000
(1635753770.626895) vcan0 1B4#7ED3000000
(1635753770.642429) vcan0 1B4#79D3000000
(1635753770.655572) vcan0 1B4#7ED3000000
(1635753770.665916) vcan0 188#00000000
(1635753770.672184) vcan0 1B4#83D3000000
(1635753770.684525) vcan0 1B4#88D3000000
(1635753770.695919) vcan0 1B4#8ED3000000
(1635753770.714066) vcan0 1B4#93D3000000
(1635753770.729518) vcan0 1B4#98D3000000
(1635753770.739842) vcan0 1B4#9DD3000000
(1635753770.753050) vcan0 1B4#A2D3000000
(1635753770.768468) vcan0 1B4#A8D3000000
(1635753770.780783) vcan0 1B4#ADD3000000
(1635753770.796237) vcan0 1B4#B2D3000000
(1635753770.806561) vcan0 1B4#B7D3000000
(1635753770.818869) vcan0 1B4#BCD3000000
(1635753770.834365) vcan0 1B4#C2D3000000
(1635753770.847556) vcan0 1B4#C7D3000000
(1635753770.863121) vcan0 1B4#CCD3000000
(1635753770.881766) vcan0 1B4#D1D3000000
(1635753770.897298) vcan0 1B4#D6D3000000
(1635753770.907614) vcan0 1B4#DCD3000000
(1635753770.920863) vcan0 1B4#E1D3000000
(1635753770.936342) vcan0 1B4#E6D3000000
(1635753770.949612) vcan0 1B4#EBD3000000
(1635753770.965160) vcan0 1B4#F0D3000000
(1635753770.983430) vcan0 1B4#F6D3000000
(1635753770.993838) vcan0 1B4#FBD3000000
(1635753771.009328) vcan0 1B4#F6D3000000
(1635753771.022688) vcan0 1B4#FBD3000000
(1635753771.038132) vcan0 1B4#00D4000000
(1635753771.051380) vcan0 1B4#05D4000000
(1635753771.061786) vcan0 1B4#0AD4000000
(1635753771.080231) vcan0 1B4#10D4000000
(1635753771.090619) vcan0 1B4#15D4000000
(1635753771.106035) vcan0 1B4#1AD4000000
(1635753771.118400) vcan0 1B4#1FD4000000
(1635753771.128675) vcan0 1B4#24D4000000
(1635753771.146330) vcan0 1B4#2AD4000000
(1635753771.156625) vcan0 1B4#2FD4000000
(1635753771.166939) vcan0 188#00000000
(1635753771.172104) vcan0 1B4#34D4000000
(1635753771.184345) vcan0 1B4#39D4000000
(1635753771.194716) vcan0 1B4#3ED4000000
(1635753771.210250) vcan0 1B4#39D4000000
(1635753771.223653) vcan0 1B4#3ED4000000
(1635753771.239136) vcan0 1B4#44D4000000
(1635753771.252288) vcan0 1B4#49D4000000
(1635753771.262674) vcan0 1B4#4ED4000000
(1635753771.280932) vcan0 1B4#53D4000000
(1635753771.296497) vcan0 1B4#58D4000000
(1635753771.306802) vcan0 1B4#5ED4000000
(1635753771.320052) vcan0 1B4#63D4000000
(1635753771.335593) vcan0 1B4#68D4000000
(1635753771.349079) vcan0 1B4#6DD4000000
(1635753771.364653) vcan0 1B4#72D4000000
(1635753771.382835) vcan0 1B4#78D4000000
(1635753771.398418) vcan0 1B4#7DD4000000
(1635753771.408743) vcan0 1B4#82D4000000
(1635753771.422375) vcan0 1B4#87D4000000
(1635753771.432676) vcan0 1B4#8CD4000000
(1635753771.450909) vcan0 1B4#92D4000000
(1635753771.466419) vcan0 1B4#97D4000000
(1635753771.476836) vcan0 1B4#92D4000000
(1635753771.489981) vcan0 1B4#97D4000000
(1635753771.505434) vcan0 1B4#9CD4000000
(1635753771.517807) vcan0 1B4#A1D4000000
(1635753771.533249) vcan0 1B4#A6D4000000
(1635753771.543573) vcan0 1B4#ACD4000000
(1635753771.556820) vcan0 1B4#B1D4000000
(1635753771.572363) vcan0 1B4#B6D4000000
(1635753771.585455) vcan0 1B4#BBD4000000
(1635753771.595821) vcan0 1B4#C0D4000000
(1635753771.614200) vcan0 1B4#C5D4000000
(1635753771.624583) vcan0 1B4#CBD4000000
(1635753771.640043) vcan0 1B4#D0D4000000
(1635753771.653615) vcan0 1B4#D5D4000000
(1635753771.669096) vcan0 1B4#DAD4000000
(1635753771.669122) vcan0 188#00000000
(1635753771.682700) vcan0 1B4#DFD4000000
(1635753771.698175) vcan0 1B4#E5D4000000
(1635753771.716758) vcan0 1B4#EAD4000000
(1635753771.732213) vcan0 1B4#EFD4000000
(1635753771.750358) vcan0 1B4#F4D4000000
(1635753771.760780) vcan0 1B4#F9D4000000
(1635753771.776337) vcan0 1B4#F4D4000000
(1635753771.789671) vcan0 1B4#EFD4000000
(1635753771.805142) vcan0 1B4#EAD4000000
(1635753771.820630) vcan0 1B4#E5D4000000
(1635753771.836061) vcan0 1B4#DFD4000000
(1635753771.851515) vcan0 1B4#DAD4000000
(1635753771.861831) vcan0 1B4#D5D4000000
(1635753771.877263) vcan0 1B4#D0D4000000
(1635753771.887595) vcan0 1B4#CBD4000000
(1635753771.903027) vcan0 1B4#C5D4000000
(1635753771.918469) vcan0 1B4#C0D4000000
(1635753771.928769) vcan0 1B4#BBD4000000
(1635753771.944292) vcan0 1B4#B6D4000000
(1635753771.954569) vcan0 1B4#B1D4000000
(1635753771.970026) vcan0 1B4#ACD4000000
(1635753771.985506) vcan0 1B4#A6D4000000
(1635753771.995805) vcan0 1B4#A1D4000000
(1635753772.011300) vcan0 1B4#9CD4000000
(1635753772.021588) vcan0 1B4#97D4000000
(1635753772.037078) vcan0 1B4#92D4000000
(1635753772.052535) vcan0 1B4#8CD4000000
(1635753772.062842) vcan0 1B4#87D4000000
(1635753772.078353) vcan0 1B4#82D4000000
(1635753772.088701) vcan0 1B4#7DD4000000
(1635753772.104188) vcan0 1B4#78D4000000
(1635753772.119624) vcan0 1B4#72D4000000
(1635753772.135110) vcan0 1B4#6DD4000000
(1635753772.150575) vcan0 1B4#68D4000000
(1635753772.166061) vcan0 1B4#63D4000000
(1635753772.171227) vcan0 188#00000000
(1635753772.181522) vcan0 1B4#5ED4000000
(1635753772.191833) vcan0 1B4#58D4000000
(1635753772.207288) vcan0 1B4#53D4000000
(1635753772.217569) vcan0 1B4#4ED4000000
(1635753772.232994) vcan0 1B4#49D4000000
(1635753772.248422) vcan0 1B4#44D4000000
(1635753772.258718) vcan0 1B4#3ED4000000
(1635753772.274172) vcan0 1B4#39D4000000
(1635753772.284550) vcan0 1B4#34D4000000
(1635753772.299986) vcan0 1B4#2FD4000000
(1635753772.315519) vcan0 1B4#2AD4000000
(1635753772.325844) vcan0 1B4#24D4000000
(1635753772.341308) vcan0 1B4#1FD4000000
(1635753772.351648) vcan0 1B4#1AD4000000
(1635753772.367145) vcan0 1B4#15D4000000
(1635753772.382642) vcan0 1B4#10D4000000
(1635753772.398129) vcan0 1B4#0AD4000000
(1635753772.413605) vcan0 1B4#05D4000000
(1635753772.429037) vcan0 1B4#00D4000000
(1635753772.444476) vcan0 1B4#FBD3000000
(1635753772.454772) vcan0 1B4#F6D3000000
(1635753772.470270) vcan0 1B4#F0D3000000
(1635753772.480562) vcan0 1B4#EBD3000000
(1635753772.496047) vcan0 1B4#E6D3000000
(1635753772.511494) vcan0 1B4#E1D3000000
(1635753772.521847) vcan0 1B4#DCD3000000
(1635753772.537325) vcan0 1B4#D6D3000000
(1635753772.547647) vcan0 1B4#D1D3000000
(1635753772.563085) vcan0 1B4#CCD3000000
(1635753772.578518) vcan0 1B4#C7D3000000
(1635753772.593992) vcan0 1B4#C2D3000000
(1635753772.609478) vcan0 1B4#BCD3000000
(1635753772.619829) vcan0 1B4#B7D3000000
(1635753772.635274) vcan0 1B4#B2D3000000
(1635753772.645612) vcan0 1B4#ADD3000000
(1635753772.655954) vcan0 1B4#A8D3000000
(1635753772.671386) vcan0 1B4#A2D3000000
(1635753772.676593) vcan0 188#00000000
(1635753772.681740) vcan0 1B4#9DD3000000
(1635753772.697209) vcan0 1B4#98D3000000
(1635753772.712636) vcan0 1B4#93D3000000
(1635753772.728153) vcan0 1B4#8ED3000000
(1635753772.743627) vcan0 1B4#88D3000000
(1635753772.759082) vcan0 1B4#83D3000000
(1635753772.774488) vcan0 1B4#7ED3000000
(1635753772.784821) vcan0 1B4#79D3000000
(1635753772.800323) vcan0 1B4#74D3000000
(1635753772.810611) vcan0 1B4#6ED3000000
(1635753772.826102) vcan0 1B4#69D3000000
(1635753772.841580) vcan0 1B4#64D3000000
(1635753772.857058) vcan0 1B4#5FD3000000
(1635753772.872514) vcan0 1B4#5AD3000000
(1635753772.882799) vcan0 1B4#54D3000000
(1635753772.898315) vcan0 1B4#4FD3000000
(1635753772.908637) vcan0 1B4#4AD3000000
(1635753772.924129) vcan0 1B4#45D3000000
(1635753772.939585) vcan0 1B4#40D3000000
(1635753772.955082) vcan0 1B4#3AD3000000
(1635753772.970521) vcan0 1B4#35D3000000
(1635753772.986014) vcan0 1B4#30D3000000
(1635753773.001485) vcan0 1B4#2BD3000000
(1635753773.011811) vcan0 1B4#26D3000000
(1635753773.027338) vcan0 1B4#20D3000000
(1635753773.037651) vcan0 1B4#1BD3000000
(1635753773.053050) vcan0 1B4#16D3000000
(1635753773.068495) vcan0 1B4#11D3000000
(1635753773.078774) vcan0 1B4#0CD3000000
(1635753773.094259) vcan0 1B4#06D3000000
(1635753773.104548) vcan0 1B4#01D3000000
(1635753773.120047) vcan0 1B4#FCD2000000
(1635753773.135556) vcan0 1B4#F7D2000000
(1635753773.151027) vcan0 1B4#F2D2000000
(1635753773.166495) vcan0 1B4#ECD2000000
(1635753773.176746) vcan0 1B4#E7D2000000
(1635753773.181912) vcan0 188#00000000
(1635753773.192221) vcan0 1B4#E2D2000000
(1635753773.207643) vcan0 1B4#DDD2000000
(1635753773.223114) vcan0 1B4#D8D2000000
(1635753773.238506) vcan0 1B4#D2D2000000
(1635753773.248827) vcan0 1B4#CDD2000000
(1635753773.264303) vcan0 1B4#C8D2000000
(1635753773.274590) vcan0 1B4#C3D2000000
(1635753773.290075) vcan0 1B4#BED2000000
(1635753773.305601) vcan0 1B4#B8D2000000
(1635753773.321054) vcan0 1B4#B3D2000000
(1635753773.336561) vcan0 1B4#AED2000000
(1635753773.352041) vcan0 1B4#A9D2000000
(1635753773.367507) vcan0 1B4#A4D2000000
(1635753773.377793) vcan0 1B4#9ED2000000
(1635753773.393181) vcan0 1B4#99D2000000
(1635753773.408610) vcan0 1B4#94D2000000
(1635753773.423966) vcan0 1B4#8FD2000000
(1635753773.439326) vcan0 1B4#8AD2000000
(1635753773.449650) vcan0 1B4#84D2000000
(1635753773.465136) vcan0 1B4#7FD2000000
(1635753773.480593) vcan0 1B4#7AD2000000
(1635753773.496066) vcan0 1B4#75D2000000
(1635753773.511591) vcan0 1B4#70D2000000
(1635753773.527060) vcan0 1B4#6AD2000000
(1635753773.542520) vcan0 1B4#65D2000000
(1635753773.558012) vcan0 1B4#60D2000000
(1635753773.573457) vcan0 1B4#5BD2000000
(1635753773.588878) vcan0 1B4#56D2000000
(1635753773.604329) vcan0 1B4#50D2000000
(1635753773.614609) vcan0 1B4#4BD2000000
(1635753773.630026) vcan0 1B4#46D2000000
(1635753773.645540) vcan0 1B4#41D2000000
(1635753773.655851) vcan0 1B4#3CD2000000
(1635753773.674192) vcan0 1B4#41D2000000
(1635753773.684583) vcan0 1B4#46D2000000
(1635753773.684609) vcan0 188#00000000
(1635753773.700001) vcan0 1B4#4BD2000000
(1635753773.715493) vcan0 1B4#50D2000000
(1635753773.726790) vcan0 1B4#56D2000000
(1635753773.742312) vcan0 1B4#5BD2000000
(1635753773.752641) vcan0 1B4#60D2000000
(1635753773.768128) vcan0 1B4#65D2000000
(1635753773.783596) vcan0 1B4#6AD2000000
(1635753773.799125) vcan0 1B4#70D2000000
(1635753773.814519) vcan0 1B4#75D2000000
(1635753773.830046) vcan0 1B4#7AD2000000
(1635753773.845518) vcan0 1B4#7FD2000000
(1635753773.861029) vcan0 1B4#84D2000000
(1635753773.876523) vcan0 1B4#8AD2000000
(1635753773.892030) vcan0 1B4#8FD2000000
(1635753773.907522) vcan0 1B4#94D2000000
(1635753773.922995) vcan0 1B4#99D2000000
(1635753773.938451) vcan0 1B4#9ED2000000
(1635753773.948760) vcan0 1B4#A4D2000000
(1635753773.964220) vcan0 1B4#A9D2000000
(1635753773.974571) vcan0 1B4#AED2000000
(1635753773.985957) vcan0 1B4#B3D2000000
(1635753774.001396) vcan0 1B4#B8D2000000
(1635753774.011732) vcan0 1B4#BED2000000
(1635753774.027205) vcan0 1B4#C3D2000000
(1635753774.037541) vcan0 1B4#C8D2000000
(1635753774.053030) vcan0 1B4#CDD2000000
(1635753774.068471) vcan0 1B4#D2D2000000
(1635753774.078786) vcan0 1B4#D8D2000000
(1635753774.091905) vcan0 1B4#DDD2000000
(1635753774.107475) vcan0 1B4#E2D2000000
(1635753774.117812) vcan0 1B4#E7D2000000
(1635753774.131164) vcan0 1B4#ECD2000000
(1635753774.146604) vcan0 1B4#F2D2000000
(1635753774.160019) vcan0 1B4#F7D2000000
(1635753774.175577) vcan0 1B4#FCD2000000
(1635753774.188685) vcan0 1B4#01D3000000
(1635753774.188718) vcan0 188#00000000
(1635753774.204230) vcan0 1B4#06D3000000
(1635753774.214515) vcan0 1B4#0CD3000000
(1635753774.227839) vcan0 1B4#11D3000000
(1635753774.243319) vcan0 1B4#16D3000000
(1635753774.256118) vcan0 1B4#1BD3000000
(1635753774.271613) vcan0 1B4#20D3000000
(1635753774.289718) vcan0 1B4#26D3000000
(1635753774.302761) vcan0 1B4#2BD3000000
(1635753774.318226) vcan0 1B4#30D3000000
(1635753774.328543) vcan0 1B4#35D3000000
(1635753774.343978) vcan0 1B4#3AD3000000
(1635753774.359368) vcan0 1B4#40D3000000
(1635753774.369662) vcan0 1B4#45D3000000
(1635753774.385102) vcan0 1B4#4AD3000000
(1635753774.400524) vcan0 1B4#4FD3000000
(1635753774.416014) vcan0 1B4#54D3000000
(1635753774.431451) vcan0 1B4#5AD3000000
(1635753774.441791) vcan0 1B4#5FD3000000
(1635753774.457222) vcan0 1B4#64D3000000
(1635753774.467511) vcan0 1B4#69D3000000
(1635753774.482953) vcan0 1B4#6ED3000000
(1635753774.498371) vcan0 1B4#74D3000000
(1635753774.508739) vcan0 1B4#79D3000000
(1635753774.524161) vcan0 1B4#7ED3000000
(1635753774.539596) vcan0 1B4#83D3000000
(1635753774.554992) vcan0 1B4#88D3000000
(1635753774.570415) vcan0 1B4#8ED3000000
(1635753774.580710) vcan0 1B4#93D3000000
(1635753774.596125) vcan0 1B4#98D3000000
(1635753774.611507) vcan0 1B4#9DD3000000
(1635753774.626946) vcan0 1B4#A2D3000000
(1635753774.642429) vcan0 1B4#A8D3000000
(1635753774.652721) vcan0 1B4#ADD3000000
(1635753774.663033) vcan0 1B4#B2D3000000
(1635753774.678452) vcan0 1B4#B7D3000000
(1635753774.688801) vcan0 1B4#BCD3000000
(1635753774.693990) vcan0 188#02000000
(1635753774.704327) vcan0 1B4#C2D3000000
(1635753774.717279) vcan0 1B4#C7D3000000
(1635753774.727652) vcan0 1B4#CCD3000000
(1635753774.746045) vcan0 1B4#D1D3000000
(1635753774.761628) vcan0 1B4#D6D3000000
(1635753774.780244) vcan0 1B4#DCD3000000
(1635753774.790635) vcan0 1B4#E1D3000000
(1635753774.806090) vcan0 1B4#E6D3000000
(1635753774.819350) vcan0 1B4#EBD3000000
(1635753774.829667) vcan0 1B4#F0D3000000
(1635753774.840610) vcan0 1B4#F6D3000000
(1635753774.854118) vcan0 1B4#FBD3000000
(1635753774.869604) vcan0 1B4#00D4000000
(1635753774.882826) vcan0 1B4#05D4000000
(1635753774.898366) vcan0 1B4#0AD4000000
(1635753774.908745) vcan0 1B4#10D4000000
(1635753774.922041) vcan0 1B4#15D4000000
(1635753774.937489) vcan0 1B4#1AD4000000
(1635753774.950819) vcan0 1B4#1FD4000000
(1635753774.966438) vcan0 1B4#24D4000000
(1635753774.976819) vcan0 1B4#2AD4000000
(1635753774.990203) vcan0 1B4#2FD4000000
(1635753775.000540) vcan0 1B4#34D4000000
(1635753775.018794) vcan0 1B4#39D4000000
(1635753775.034356) vcan0 1B4#3ED4000000
(1635753775.047503) vcan0 1B4#44D4000000
(1635753775.063100) vcan0 1B4#49D4000000
(1635753775.081439) vcan0 1B4#4ED4000000
(1635753775.091798) vcan0 1B4#53D4000000
(1635753775.107279) vcan0 1B4#58D4000000
(1635753775.121099) vcan0 1B4#5ED4000000
(1635753775.136571) vcan0 1B4#63D4000000
(1635753775.149619) vcan0 1B4#68D4000000
(1635753775.165190) vcan0 1B4#6DD4000000
(1635753775.175891) vcan0 1B4#72D4000000
(1635753775.191353) vcan0 1B4#78D4000000
(1635753775.196523) vcan0 188#00000000
(1635753775.201704) vcan0 1B4#7DD4000000
(1635753775.217187) vcan0 1B4#82D4000000
(1635753775.227522) vcan0 1B4#87D4000000
(1635753775.242986) vcan0 1B4#8CD4000000
(1635753775.258413) vcan0 1B4#92D4000000
(1635753775.268741) vcan0 1B4#97D4000000
(1635753775.284186) vcan0 1B4#9CD4000000
(1635753775.299623) vcan0 1B4#A1D4000000
(1635753775.315120) vcan0 1B4#A6D4000000
(1635753775.330566) vcan0 1B4#ACD4000000
(1635753775.346038) vcan0 1B4#B1D4000000
(1635753775.361523) vcan0 1B4#B6D4000000
(1635753775.376978) vcan0 1B4#BBD4000000
(1635753775.392451) vcan0 1B4#C0D4000000
(1635753775.402773) vcan0 1B4#C5D4000000
(1635753775.418266) vcan0 1B4#CBD4000000
(1635753775.428645) vcan0 1B4#D0D4000000
(1635753775.444139) vcan0 1B4#D5D4000000
(1635753775.459559) vcan0 1B4#DAD4000000
(1635753775.475111) vcan0 1B4#D5D4000000
(1635753775.490580) vcan0 1B4#D0D4000000
(1635753775.503623) vcan0 1B4#CBD4000000
(1635753775.519098) vcan0 1B4#C5D4000000
(1635753775.534508) vcan0 1B4#C0D4000000
(1635753775.550008) vcan0 1B4#BBD4000000
(1635753775.565490) vcan0 1B4#B6D4000000
(1635753775.575768) vcan0 1B4#B1D4000000
(1635753775.591227) vcan0 1B4#ACD4000000
(1635753775.601547) vcan0 1B4#A6D4000000
(1635753775.616896) vcan0 1B4#A1D4000000
(1635753775.632357) vcan0 1B4#9CD4000000
(1635753775.642667) vcan0 1B4#97D4000000
(1635753775.658106) vcan0 1B4#92D4000000
(1635753775.673549) vcan0 1B4#8CD4000000
(1635753775.730763) vcan0 1B4#87D4000000
(1635753775.730776) vcan0 188#01000000
(1635753775.746195) vcan0 1B4#DDD3000000
(1635753775.756499) vcan0 1B4#77D3000000
(1635753775.771937) vcan0 1B4#F3D2000000
(1635753775.783183) vcan0 1B4#A4D2000000
(1635753775.793520) vcan0 1B4#5DD2000000
(1635753775.809108) vcan0 1B4#01D2000000
(1635753775.824590) vcan0 1B4#B3D1000000
(1635753775.840046) vcan0 1B4#70D1000000
(1635753775.855475) vcan0 1B4#36D1000000
(1635753775.865786) vcan0 1B4#12D1000000
(1635753775.881331) vcan0 1B4#E6D0000000
(1635753775.891690) vcan0 1B4#CAD0000000
(1635753775.907196) vcan0 1B4#A8D0000000
(1635753775.918500) vcan0 1B4#93D0000000
(1635753775.933946) vcan0 1B4#78D0000000
(1635753775.949443) vcan0 1B4#62D0000000
(1635753775.959735) vcan0 1B4#53D0000000
(1635753775.975231) vcan0 1B4#42D0000000
(1635753775.985583) vcan0 1B4#36D0000000
(1635753776.001048) vcan0 1B4#29D0000000
(1635753776.016518) vcan0 1B4#1ED0000000
(1635753776.031944) vcan0 1B4#15D0000000
(1635753776.047377) vcan0 1B4#00D0000000
(1635753776.057709) vcan0 1B4#00D0000000
(1635753776.073208) vcan0 1B4#00D0000000
(1635753776.083556) vcan0 1B4#00D0000000
(1635753776.098987) vcan0 1B4#00D0000000
(1635753776.114412) vcan0 1B4#00D0000000
(1635753776.124781) vcan0 1B4#00D0000000
(1635753776.135571) vcan0 1B4#00D0000000
(1635753776.151076) vcan0 1B4#00D0000000
(1635753776.166519) vcan0 1B4#00D0000000
(1635753776.182043) vcan0 1B4#00D0000000
(1635753776.197541) vcan0 1B4#00D0000000
(1635753776.212983) vcan0 1B4#00D0000000
(1635753776.228484) vcan0 1B4#00D0000000
(1635753776.233639) vcan0 188#00000000
(1635753776.238843) vcan0 1B4#00D0000000
(1635753776.254365) vcan0 1B4#00D0000000
(1635753776.264668) vcan0 1B4#00D0000000
(1635753776.280124) vcan0 1B4#00D0000000
(1635753776.295597) vcan0 1B4#00D0000000
(1635753776.311080) vcan0 1B4#00D0000000
(1635753776.326542) vcan0 1B4#00D0000000
(1635753776.342041) vcan0 1B4#00D0000000
(1635753776.357510) vcan0 1B4#00D0000000
(1635753776.372994) vcan0 1B4#00D0000000
(1635753776.388449) vcan0 1B4#00D0000000
(1635753776.398764) vcan0 1B4#00D0000000
(1635753776.414254) vcan0 1B4#00D0000000
(1635753776.424598) vcan0 1B4#00D0000000
(1635753776.440099) vcan0 1B4#00D0000000
(1635753776.450351) vcan0 19B#00000D000000
(1635753776.455593) vcan0 1B4#00D0000000
(1635753776.471111) vcan0 1B4#00D0000000
(1635753776.486541) vcan0 1B4#00D0000000
(1635753776.502038) vcan0 1B4#00D0000000
(1635753776.517502) vcan0 1B4#00D0000000
(1635753776.532995) vcan0 1B4#00D0000000
(1635753776.548451) vcan0 1B4#00D0000000
(1635753776.558841) vcan0 1B4#00D0000000
(1635753776.574361) vcan0 1B4#00D0000000
(1635753776.589817) vcan0 1B4#00D0000000
(1635753776.605315) vcan0 1B4#00D0000000
(1635753776.615640) vcan0 1B4#00D0000000
(1635753776.631118) vcan0 1B4#00D0000000
(1635753776.646551) vcan0 1B4#00D0000000
(1635753776.656900) vcan0 1B4#00D0000000
(1635753776.672345) vcan0 1B4#00D0000000
(1635753776.682696) vcan0 1B4#00D0000000
(1635753776.698155) vcan0 1B4#00D0000000
(1635753776.713623) vcan0 1B4#00D0000000
(1635753776.718755) vcan0 19B#000005000000
(1635753776.729214) vcan0 1B4#00D0000000
(1635753776.739493) vcan0 1B4#00D0000000
(1635753776.739520) vcan0 188#01000000
(1635753776.754952) vcan0 1B4#00D0000000
(1635753776.770323) vcan0 19B#000001000000
(1635753776.770397) vcan0 1B4#00D0000000
(1635753776.780681) vcan0 1B4#00D0000000
(1635753776.796133) vcan0 1B4#00D0000000
(1635753776.811548) vcan0 1B4#00D0000000
(1635753776.826968) vcan0 1B4#00D0000000
(1635753776.842411) vcan0 1B4#00D0000000
(1635753776.852672) vcan0 1B4#00D0000000
(1635753776.868136) vcan0 1B4#00D0000000
(1635753776.883547) vcan0 1B4#00D0000000
(1635753776.898955) vcan0 1B4#00D0000000
(1635753776.914358) vcan0 1B4#00D0000000
(1635753776.925128) vcan0 1B4#00D0000000
(1635753776.940631) vcan0 1B4#00D0000000
(1635753776.956113) vcan0 1B4#00D0000000
(1635753776.971609) vcan0 1B4#00D0000000
(1635753776.987084) vcan0 1B4#00D0000000
(1635753777.002548) vcan0 1B4#00D0000000
(1635753777.017977) vcan0 1B4#00D0000000
(1635753777.033434) vcan0 1B4#00D0000000
(1635753777.043747) vcan0 1B4#00D0000000
(1635753777.059221) vcan0 1B4#00D0000000
(1635753777.069792) vcan0 1B4#00D0000000
(1635753777.085213) vcan0 1B4#00D0000000
(1635753777.095518) vcan0 1B4#00D0000000
(1635753777.110953) vcan0 1B4#00D0000000
(1635753777.126452) vcan0 1B4#00D0000000
(1635753777.136756) vcan0 1B4#00D0000000
(1635753777.152176) vcan0 1B4#00D0000000
(1635753777.162520) vcan0 1B4#00D0000000
(1635753777.177999) vcan0 1B4#00D0000000
(1635753777.193509) vcan0 1B4#00D0000000
(1635753777.208967) vcan0 1B4#00D0000000
(1635753777.224472) vcan0 1B4#00D0000000
(1635753777.234800) vcan0 1B4#00D0000000
(1635753777.245134) vcan0 188#00000000
(1635753777.250330) vcan0 1B4#00D0000000
(1635753777.260639) vcan0 1B4#00D0000000
(1635753777.276078) vcan0 1B4#00D0000000
(1635753777.291543) vcan0 1B4#00D0000000
(1635753777.307043) vcan0 1B4#00D0000000
(1635753777.322469) vcan0 1B4#00D0000000
(1635753777.332811) vcan0 1B4#00D0000000
(1635753777.348307) vcan0 1B4#00D0000000
(1635753777.359244) vcan0 1B4#00D0000000
(1635753777.369602) vcan0 1B4#00D0000000
(1635753777.385044) vcan0 1B4#00D0000000
(1635753777.400509) vcan0 1B4#00D0000000
(1635753777.415990) vcan0 1B4#00D0000000
(1635753777.431513) vcan0 1B4#00D0000000
(1635753777.446978) vcan0 1B4#00D0000000
(1635753777.462429) vcan0 1B4#00D0000000
(1635753777.472724) vcan0 1B4#00D0000000
(1635753777.488206) vcan0 1B4#00D0000000
(1635753777.498490) vcan0 1B4#00D0000000
(1635753777.513937) vcan0 1B4#00D0000000
(1635753777.529445) vcan0 1B4#00D0000000
(1635753777.539804) vcan0 1B4#00D0000000
(1635753777.555302) vcan0 1B4#00D0000000
(1635753777.565633) vcan0 1B4#00D0000000
(1635753777.581120) vcan0 1B4#00D0000000
(1635753777.596644) vcan0 1B4#00D0000000
(1635753777.612132) vcan0 1B4#00D0000000
(1635753777.627591) vcan0 1B4#00D0000000
(1635753777.643054) vcan0 1B4#00D0000000
(1635753777.653388) vcan0 1B4#00D0000000
(1635753777.663698) vcan0 1B4#00D0000000
(1635753777.679166) vcan0 1B4#00D0000000
(1635753777.694592) vcan0 1B4#00D0000000
(1635753777.710096) vcan0 1B4#00D0000000
(1635753777.725566) vcan0 1B4#00D0000000
(1635753777.741060) vcan0 1B4#00D0000000
(1635753777.746237) vcan0 188#01000000
(1635753777.751478) vcan0 1B4#00D0000000
(1635753777.766978) vcan0 1B4#00D0000000
(1635753777.782430) vcan0 1B4#00D0000000
(1635753777.792722) vcan0 1B4#00D0000000
(1635753777.804320) vcan0 1B4#00D0000000
(1635753777.814610) vcan0 1B4#00D0000000
(1635753777.830106) vcan0 1B4#00D0000000
(1635753777.845535) vcan0 1B4#00D0000000
(1635753777.861044) vcan0 1B4#00D0000000
(1635753777.876484) vcan0 1B4#00D0000000
(1635753777.891967) vcan0 1B4#00D0000000
(1635753777.907503) vcan0 1B4#00D0000000
(1635753777.922983) vcan0 1B4#00D0000000
(1635753777.938432) vcan0 1B4#00D0000000
(1635753777.948762) vcan0 1B4#00D0000000
(1635753777.964402) vcan0 1B4#00D0000000
(1635753777.974735) vcan0 1B4#00D0000000
(1635753777.990216) vcan0 1B4#00D0000000
(1635753778.000569) vcan0 1B4#00D0000000
(1635753778.016043) vcan0 1B4#00D0000000
(1635753778.031538) vcan0 1B4#00D0000000
(1635753778.043210) vcan0 1B4#00D0000000
(1635753778.053549) vcan0 1B4#00D0000000
(1635753778.069060) vcan0 1B4#00D0000000
(1635753778.084560) vcan0 1B4#00D0000000
(1635753778.100109) vcan0 1B4#00D0000000
(1635753778.115612) vcan0 1B4#00D0000000
(1635753778.131022) vcan0 1B4#00D0000000
(1635753778.146498) vcan0 1B4#00D0000000
(1635753778.161981) vcan0 1B4#00D0000000
(1635753778.177522) vcan0 1B4#00D0000000
(1635753778.192980) vcan0 1B4#00D0000000
(1635753778.208507) vcan0 1B4#00D0000000
(1635753778.224009) vcan0 1B4#00D0000000
(1635753778.239516) vcan0 1B4#00D0000000
(1635753778.249843) vcan0 188#00000000
(1635753778.255010) vcan0 1B4#00D0000000
(1635753778.270481) vcan0 1B4#00D0000000
(1635753778.285928) vcan0 1B4#00D0000000
(1635753778.301357) vcan0 1B4#00D0000000
(1635753778.311675) vcan0 1B4#00D0000000
(1635753778.327066) vcan0 1B4#00D0000000
(1635753778.342529) vcan0 1B4#00D0000000
(1635753778.357978) vcan0 1B4#00D0000000
(1635753778.373463) vcan0 1B4#00D0000000
(1635753778.383800) vcan0 1B4#00D0000000
(1635753778.399253) vcan0 1B4#00D0000000
(1635753778.409604) vcan0 1B4#00D0000000
(1635753778.425063) vcan0 1B4#00D0000000
(1635753778.440537) vcan0 1B4#00D0000000
(1635753778.455979) vcan0 1B4#00D0000000
(1635753778.471464) vcan0 1B4#00D0000000
(1635753778.481825) vcan0 1B4#00D0000000
(1635753778.497262) vcan0 1B4#00D0000000
(1635753778.507599) vcan0 1B4#00D0000000
(1635753778.523073) vcan0 1B4#00D0000000
(1635753778.538540) vcan0 1B4#00D0000000
(1635753778.554043) vcan0 1B4#00D0000000
(1635753778.569545) vcan0 1B4#00D0000000
(1635753778.585025) vcan0 1B4#00D0000000
(1635753778.600520) vcan0 1B4#00D0000000
(1635753778.616000) vcan0 1B4#00D0000000
(1635753778.631484) vcan0 1B4#00D0000000
(1635753778.646953) vcan0 1B4#00D0000000
(1635753778.657300) vcan0 1B4#00D0000000
(1635753778.667630) vcan0 1B4#00D0000000
(1635753778.683054) vcan0 1B4#00D0000000
(1635753778.698496) vcan0 1B4#00D0000000
(1635753778.713947) vcan0 1B4#00D0000000
(1635753778.729427) vcan0 1B4#00D0000000
(1635753778.739742) vcan0 1B4#00D0000000
(1635753778.755224) vcan0 1B4#00D0000000
(1635753778.755253) vcan0 188#01000000
(1635753778.765534) vcan0 1B4#00D0000000
(1635753778.781033) vcan0 1B4#00D0000000
(1635753778.796525) vcan0 1B4#00D0000000
(1635753778.811985) vcan0 1B4#00D0000000
(1635753778.827500) vcan0 1B4#00D0000000
(1635753778.843041) vcan0 1B4#00D0000000
(1635753778.858453) vcan0 1B4#00D0000000
(1635753778.868775) vcan0 1B4#00D0000000
(1635753778.884194) vcan0 1B4#00D0000000
(1635753778.894460) vcan0 1B4#00D0000000
(1635753778.909919) vcan0 1B4#00D0000000
(1635753778.925424) vcan0 1B4#00D0000000
(1635753778.935756) vcan0 1B4#00D0000000
(1635753778.951281) vcan0 1B4#00D0000000
(1635753778.961584) vcan0 1B4#00D0000000
(1635753778.977021) vcan0 1B4#00D0000000
(1635753778.992480) vcan0 1B4#00D0000000
(1635753779.007936) vcan0 1B4#00D0000000
(1635753779.023394) vcan0 1B4#00D0000000
(1635753779.033718) vcan0 1B4#00D0000000
(1635753779.049201) vcan0 1B4#00D0000000
(1635753779.059538) vcan0 1B4#00D0000000
(1635753779.075004) vcan0 1B4#00D0000000
(1635753779.090426) vcan0 1B4#00D0000000
(1635753779.100757) vcan0 1B4#00D0000000
(1635753779.116246) vcan0 1B4#00D0000000
(1635753779.126534) vcan0 1B4#00D0000000
(1635753779.142026) vcan0 1B4#00D0000000
(1635753779.157525) vcan0 1B4#00D0000000
(1635753779.173034) vcan0 1B4#00D0000000
(1635753779.188473) vcan0 1B4#00D0000000
(1635753779.203949) vcan0 1B4#00D0000000
(1635753779.219509) vcan0 1B4#00D0000000
(1635753779.234979) vcan0 1B4#00D0000000
(1635753779.250473) vcan0 1B4#00D0000000
(1635753779.255645) vcan0 188#00000000
(1635753779.265967) vcan0 1B4#00D0000000
(1635753779.281472) vcan0 1B4#00D0000000
(1635753779.296900) vcan0 1B4#00D0000000
(1635753779.312410) vcan0 1B4#00D0000000
(1635753779.322762) vcan0 1B4#00D0000000
(1635753779.338215) vcan0 1B4#00D0000000
(1635753779.348571) vcan0 1B4#00D0000000
(1635753779.364026) vcan0 1B4#00D0000000
(1635753779.379503) vcan0 1B4#00D0000000
(1635753779.394961) vcan0 1B4#00D0000000
(1635753779.410442) vcan0 1B4#00D0000000
(1635753779.420755) vcan0 1B4#00D0000000
(1635753779.436217) vcan0 1B4#00D0000000
(1635753779.446516) vcan0 1B4#00D0000000
(1635753779.461964) vcan0 1B4#00D0000000
(1635753779.477436) vcan0 1B4#00D0000000
(1635753779.487745) vcan0 1B4#00D0000000
(1635753779.503239) vcan0 1B4#00D0000000
(1635753779.513556) vcan0 1B4#00D0000000
(1635753779.529058) vcan0 1B4#00D0000000
(1635753779.544559) vcan0 1B4#00D0000000
(1635753779.559982) vcan0 1B4#00D0000000
(1635753779.575441) vcan0 1B4#00D0000000
(1635753779.590928) vcan0 1B4#00D0000000
(1635753779.606356) vcan0 1B4#00D0000000
(1635753779.616676) vcan0 1B4#00D0000000
(1635753779.632162) vcan0 1B4#00D0000000
(1635753779.647618) vcan0 1B4#00D0000000
(1635753779.657901) vcan0 1B4#00D0000000
(1635753779.673332) vcan0 1B4#00D0000000
(1635753779.683680) vcan0 1B4#00D0000000
(1635753779.699109) vcan0 1B4#00D0000000
(1635753779.714559) vcan0 1B4#00D0000000
(1635753779.730043) vcan0 1B4#00D0000000
(1635753779.745500) vcan0 1B4#00D0000000
(1635753779.760904) vcan0 1B4#00D0000000
(1635753779.760937) vcan0 188#01000000
(1635753779.776374) vcan0 1B4#00D0000000
(1635753779.786691) vcan0 1B4#00D0000000
(1635753779.802117) vcan0 1B4#00D0000000
(1635753779.812462) vcan0 1B4#00D0000000
(1635753779.827877) vcan0 1B4#00D0000000
(1635753779.843362) vcan0 1B4#00D0000000
(1635753779.853733) vcan0 1B4#00D0000000
(1635753779.869176) vcan0 1B4#00D0000000
(1635753779.879541) vcan0 1B4#00D0000000
(1635753779.894971) vcan0 1B4#00D0000000
(1635753779.910429) vcan0 1B4#00D0000000
(1635753779.920735) vcan0 1B4#00D0000000
(1635753779.936225) vcan0 1B4#00D0000000
(1635753779.946540) vcan0 1B4#00D0000000
(1635753779.962003) vcan0 1B4#00D0000000
(1635753779.977483) vcan0 1B4#00D0000000
(1635753779.992978) vcan0 1B4#00D0000000
(1635753780.008479) vcan0 1B4#00D0000000
(1635753780.023929) vcan0 1B4#00D0000000
(1635753780.039353) vcan0 1B4#00D0000000
(1635753780.049710) vcan0 1B4#00D0000000
(1635753780.065211) vcan0 1B4#00D0000000
(1635753780.075474) vcan0 1B4#00D0000000
(1635753780.090927) vcan0 1B4#00D0000000
(1635753780.106387) vcan0 1B4#00D0000000
(1635753780.116701) vcan0 1B4#00D0000000
(1635753780.132182) vcan0 1B4#00D0000000
(1635753780.142481) vcan0 1B4#00D0000000
(1635753780.157974) vcan0 1B4#00D0000000
(1635753780.173417) vcan0 1B4#00D0000000
(1635753780.183754) vcan0 1B4#00D0000000
(1635753780.199247) vcan0 1B4#00D0000000
(1635753780.209578) vcan0 1B4#00D0000000
(1635753780.225027) vcan0 1B4#00D0000000
(1635753780.240509) vcan0 1B4#00D0000000
(1635753780.255972) vcan0 1B4#00D0000000
(1635753780.266293) vcan0 188#00000000
(1635753780.271470) vcan0 1B4#00D0000000
(1635753780.286958) vcan0 1B4#00D0000000
(1635753780.302424) vcan0 1B4#00D0000000
(1635753780.312751) vcan0 1B4#00D0000000
(1635753780.328239) vcan0 1B4#00D0000000
(1635753780.338526) vcan0 1B4#00D0000000
(1635753780.353980) vcan0 1B4#00D0000000
(1635753780.369500) vcan0 1B4#00D0000000
(1635753780.384978) vcan0 1B4#00D0000000
(1635753780.400506) vcan0 1B4#00D0000000
(1635753780.415979) vcan0 1B4#00D0000000
(1635753780.431492) vcan0 1B4#00D0000000
(1635753780.446928) vcan0 1B4#00D0000000
(1635753780.458405) vcan0 1B4#00D0000000
(1635753780.468717) vcan0 1B4#00D0000000
(1635753780.484248) vcan0 1B4#00D0000000
(1635753780.494555) vcan0 1B4#00D0000000
(1635753780.509998) vcan0 1B4#00D0000000
(1635753780.525497) vcan0 1B4#00D0000000
(1635753780.541006) vcan0 1B4#00D0000000
(1635753780.556539) vcan0 1B4#00D0000000
(1635753780.571958) vcan0 1B4#00D0000000
(1635753780.587446) vcan0 1B4#00D0000000
(1635753780.602910) vcan0 1B4#00D0000000
(1635753780.618364) vcan0 1B4#00D0000000
(1635753780.628678) vcan0 1B4#00D0000000
(1635753780.644154) vcan0 1B4#00D0000000
(1635753780.654444) vcan0 1B4#00D0000000
(1635753780.669869) vcan0 1B4#00D0000000
(1635753780.685366) vcan0 1B4#00D0000000
(1635753780.695685) vcan0 1B4#00D0000000
(1635753780.711180) vcan0 1B4#00D0000000
(1635753780.721506) vcan0 1B4#00D0000000
(1635753780.737006) vcan0 1B4#00D0000000
(1635753780.752425) vcan0 1B4#00D0000000
(1635753780.762731) vcan0 1B4#00D0000000
(1635753780.767907) vcan0 188#01000000
(1635753780.778205) vcan0 1B4#00D0000000
(1635753780.788483) vcan0 1B4#00D0000000
(1635753780.803891) vcan0 1B4#00D0000000
(1635753780.819335) vcan0 1B4#00D0000000
(1635753780.829707) vcan0 1B4#00D0000000
(1635753780.845159) vcan0 1B4#00D0000000
(1635753780.855521) vcan0 1B4#00D0000000
(1635753780.871016) vcan0 1B4#00D0000000
(1635753780.886487) vcan0 1B4#00D0000000
(1635753780.901995) vcan0 1B4#00D0000000
(1635753780.917480) vcan0 1B4#00D0000000
(1635753780.932953) vcan0 1B4#00D0000000
(1635753780.948385) vcan0 1B4#00D0000000
(1635753780.958703) vcan0 1B4#00D0000000
(1635753780.974176) vcan0 1B4#00D0000000
(1635753780.984502) vcan0 1B4#00D0000000
(1635753780.995677) vcan0 1B4#00D0000000
(1635753781.011203) vcan0 1B4#00D0000000
(1635753781.021528) vcan0 1B4#00D0000000
(1635753781.037024) vcan0 1B4#00D0000000
(1635753781.052528) vcan0 1B4#00D0000000
(1635753781.067945) vcan0 1B4#00D0000000
(1635753781.083419) vcan0 1B4#00D0000000
(1635753781.093736) vcan0 1B4#00D0000000
(1635753781.109255) vcan0 1B4#00D0000000
(1635753781.119579) vcan0 1B4#00D0000000
(1635753781.135041) vcan0 1B4#00D0000000
(1635753781.150486) vcan0 1B4#00D0000000
(1635753781.166028) vcan0 1B4#00D0000000
(1635753781.181529) vcan0 1B4#00D0000000
(1635753781.197035) vcan0 1B4#00D0000000
(1635753781.212529) vcan0 1B4#00D0000000
(1635753781.228018) vcan0 1B4#00D0000000
(1635753781.243532) vcan0 1B4#00D0000000
(1635753781.259009) vcan0 1B4#00D0000000
(1635753781.269328) vcan0 188#00000000
(1635753781.274506) vcan0 1B4#00D0000000
(1635753781.290003) vcan0 1B4#00D0000000
(1635753781.305539) vcan0 1B4#00D0000000
(1635753781.321031) vcan0 1B4#00D0000000
(1635753781.336469) vcan0 1B4#00D0000000
